#  HZ   S   DB   R     50.00 
! Rohde & Schwarz ZVA8 4Ports - Version 3.00 - 1145.1110k10 SN: 100235
! Date: 2014-11-19 13:13:30
! Measurements: S11 S21 S12 S22 
! 
1.00000000000000e+004	3.50919221405816e+001	1.06394757960057e+002	3.50919221405816e+001	1.06394757960057e+002	3.50919221405816e+001	1.06394757960057e+002	3.50919221405816e+001	1.06394757960057e+002
1.02329299228075e+004	3.53098213921065e+001	1.06752119842906e+002	3.53098213921065e+001	1.06752119842906e+002	3.53098213921065e+001	1.06752119842906e+002	3.53098213921065e+001	1.06752119842906e+002
1.04712854805090e+004	3.55284853536923e+001	1.07116185242549e+002	3.55284853536923e+001	1.07116185242549e+002	3.55284853536923e+001	1.07116185242549e+002	3.55284853536923e+001	1.07116185242549e+002
1.07151930523761e+004	3.57479431981173e+001	1.07487009285180e+002	3.57479431981173e+001	1.07487009285180e+002	3.57479431981173e+001	1.07487009285180e+002	3.57479431981173e+001	1.07487009285180e+002
1.09647819614318e+004	3.59682249091531e+001	1.07864642753067e+002	3.59682249091531e+001	1.07864642753067e+002	3.59682249091531e+001	1.07864642753067e+002	3.59682249091531e+001	1.07864642753067e+002
1.12201845430196e+004	3.61893612779812e+001	1.08249131742027e+002	3.61893612779812e+001	1.08249131742027e+002	3.61893612779812e+001	1.08249131742027e+002	3.61893612779812e+001	1.08249131742027e+002
1.14815362149688e+004	3.64113838969201e+001	1.08640517308356e+002	3.64113838969201e+001	1.08640517308356e+002	3.64113838969201e+001	1.08640517308356e+002	3.64113838969201e+001	1.08640517308356e+002
1.17489755493953e+004	3.66343251502597e+001	1.09038835105904e+002	3.66343251502597e+001	1.09038835105904e+002	3.66343251502597e+001	1.09038835105904e+002	3.66343251502597e+001	1.09038835105904e+002
1.20226443461741e+004	3.68582182019919e+001	1.09444115014097e+002	3.68582182019919e+001	1.09444115014097e+002	3.68582182019919e+001	1.09444115014097e+002	3.68582182019919e+001	1.09444115014097e+002
1.23026877081238e+004	3.70830969802409e+001	1.09856380757847e+002	3.70830969802409e+001	1.09856380757847e+002	3.70830969802409e+001	1.09856380757847e+002	3.70830969802409e+001	1.09856380757847e+002
1.25892541179417e+004	3.73089961581755e+001	1.10275649520458e+002	3.73089961581755e+001	1.10275649520458e+002	3.73089961581755e+001	1.10275649520458e+002	3.73089961581755e+001	1.10275649520458e+002
1.28824955169313e+004	3.75359511312053e+001	1.10701931550760e+002	3.75359511312053e+001	1.10701931550760e+002	3.75359511312053e+001	1.10701931550760e+002	3.75359511312053e+001	1.10701931550760e+002
1.31825673855641e+004	3.77639979902724e+001	1.11135229765874e+002	3.77639979902724e+001	1.11135229765874e+002	3.77639979902724e+001	1.11135229765874e+002	3.77639979902724e+001	1.11135229765874e+002
1.34896288259165e+004	3.79931734910340e+001	1.11575539351184e+002	3.79931734910340e+001	1.11575539351184e+002	3.79931734910340e+001	1.11575539351184e+002	3.79931734910340e+001	1.11575539351184e+002
1.38038426460288e+004	3.82235150187744e+001	1.12022847359235e+002	3.82235150187744e+001	1.12022847359235e+002	3.82235150187744e+001	1.12022847359235e+002	3.82235150187744e+001	1.12022847359235e+002
1.41253754462275e+004	3.84550605488671e+001	1.12477132309469e+002	3.84550605488671e+001	1.12477132309469e+002	3.84550605488671e+001	1.12477132309469e+002	3.84550605488671e+001	1.12477132309469e+002
1.44543977074593e+004	3.86878486026468e+001	1.12938363790866e+002	3.86878486026468e+001	1.12938363790866e+002	3.86878486026468e+001	1.12938363790866e+002	3.86878486026468e+001	1.12938363790866e+002
1.47910838816821e+004	3.89219181985679e+001	1.13406502069704e+002	3.89219181985679e+001	1.13406502069704e+002	3.89219181985679e+001	1.13406502069704e+002	3.89219181985679e+001	1.13406502069704e+002
1.51356124843621e+004	3.91573087985268e+001	1.13881497704857e+002	3.91573087985268e+001	1.13881497704857e+002	3.91573087985268e+001	1.13881497704857e+002	3.91573087985268e+001	1.13881497704857e+002
1.54881661891248e+004	3.93940602492854e+001	1.14363291173173e+002	3.93940602492854e+001	1.14363291173173e+002	3.93940602492854e+001	1.14363291173173e+002	3.93940602492854e+001	1.14363291173173e+002
1.58489319246111e+004	3.96322127189357e+001	1.14851812507607e+002	3.96322127189357e+001	1.14851812507607e+002	3.96322127189357e+001	1.14851812507607e+002	3.96322127189357e+001	1.14851812507607e+002
1.62181009735893e+004	3.98718066283911e+001	1.15346980950961e+002	3.98718066283911e+001	1.15346980950961e+002	3.98718066283911e+001	1.15346980950961e+002	3.98718066283911e+001	1.15346980950961e+002
1.65958690743756e+004	4.01128825779311e+001	1.15848704628121e+002	4.01128825779311e+001	1.15848704628121e+002	4.01128825779311e+001	1.15848704628121e+002	4.01128825779311e+001	1.15848704628121e+002
1.69824365246174e+004	4.03554812688399e+001	1.16356880239900e+002	4.03554812688399e+001	1.16356880239900e+002	4.03554812688399e+001	1.16356880239900e+002	4.03554812688399e+001	1.16356880239900e+002
1.73780082874937e+004	4.05996434202638e+001	1.16871392781508e+002	4.05996434202638e+001	1.16871392781508e+002	4.05996434202638e+001	1.16871392781508e+002	4.05996434202638e+001	1.16871392781508e+002
1.77827941003892e+004	4.08454096814202e+001	1.17392115288857e+002	4.08454096814202e+001	1.17392115288857e+002	4.08454096814202e+001	1.17392115288857e+002	4.08454096814202e+001	1.17392115288857e+002
1.81970085860998e+004	4.10928205393551e+001	1.17918908615866e+002	4.10928205393551e+001	1.17918908615866e+002	4.10928205393551e+001	1.17918908615866e+002	4.10928205393551e+001	1.17918908615866e+002
1.86208713666287e+004	4.13419162225008e+001	1.18451621245907e+002	4.13419162225008e+001	1.18451621245907e+002	4.13419162225008e+001	1.18451621245907e+002	4.13419162225008e+001	1.18451621245907e+002
1.90546071796325e+004	4.15927366003270e+001	1.18990089140506e+002	4.15927366003270e+001	1.18990089140506e+002	4.15927366003270e+001	1.18990089140506e+002	4.15927366003270e+001	1.18990089140506e+002
1.94984459975804e+004	4.18453210794352e+001	1.19534135628324e+002	4.18453210794352e+001	1.19534135628324e+002	4.18453210794352e+001	1.19534135628324e+002	4.18453210794352e+001	1.19534135628324e+002
1.99526231496888e+004	4.20997084964999e+001	1.20083571337317e+002	4.20997084964999e+001	1.20083571337317e+002	4.20997084964999e+001	1.20083571337317e+002	4.20997084964999e+001	1.20083571337317e+002
2.04173794466953e+004	4.23559370085182e+001	1.20638194172761e+002	4.23559370085182e+001	1.20638194172761e+002	4.23559370085182e+001	1.20638194172761e+002	4.23559370085182e+001	1.20638194172761e+002
2.08929613085404e+004	4.26140439808622e+001	1.21197789343718e+002	4.26140439808622e+001	1.21197789343718e+002	4.26140439808622e+001	1.21197789343718e+002	4.26140439808622e+001	1.21197789343718e+002
2.13796208950223e+004	4.28740658737054e+001	1.21762129440129e+002	4.28740658737054e+001	1.21762129440129e+002	4.28740658737054e+001	1.21762129440129e+002	4.28740658737054e+001	1.21762129440129e+002
2.18776162394955e+004	4.31360381274168e+001	1.22330974562542e+002	4.31360381274168e+001	1.22330974562542e+002	4.31360381274168e+001	1.22330974562542e+002	4.31360381274168e+001	1.22330974562542e+002
2.23872113856834e+004	4.33999950475743e+001	1.22904072506060e+002	4.33999950475743e+001	1.22904072506060e+002	4.33999950475743e+001	1.22904072506060e+002	4.33999950475743e+001	1.22904072506060e+002
2.29086765276777e+004	4.36659696902791e+001	1.23481158999756e+002	4.36659696902791e+001	1.23481158999756e+002	4.36659696902791e+001	1.23481158999756e+002	4.36659696902791e+001	1.23481158999756e+002
2.34422881531992e+004	4.39339937484882e+001	1.24061958002380e+002	4.39339937484882e+001	1.24061958002380e+002	4.39339937484882e+001	1.24061958002380e+002	4.39339937484882e+001	1.24061958002380e+002
2.39883291901949e+004	4.42040974401101e+001	1.24646182054696e+002	4.42040974401101e+001	1.24646182054696e+002	4.42040974401101e+001	1.24646182054696e+002	4.42040974401101e+001	1.24646182054696e+002
2.45470891568503e+004	4.44763093986258e+001	1.25233532688351e+002	4.44763093986258e+001	1.25233532688351e+002	4.44763093986258e+001	1.25233532688351e+002	4.44763093986258e+001	1.25233532688351e+002
2.51188643150958e+004	4.47506565670013e+001	1.25823700890675e+002	4.47506565670013e+001	1.25823700890675e+002	4.47506565670013e+001	1.25823700890675e+002	4.47506565670013e+001	1.25823700890675e+002
2.57039578276886e+004	4.50271640956801e+001	1.26416367624214e+002	4.50271640956801e+001	1.26416367624214e+002	4.50271640956801e+001	1.26416367624214e+002	4.50271640956801e+001	1.26416367624214e+002
2.63026799189538e+004	4.53058552454126e+001	1.27011204399375e+002	4.53058552454126e+001	1.27011204399375e+002	4.53058552454126e+001	1.27011204399375e+002	4.53058552454126e+001	1.27011204399375e+002
2.69153480392691e+004	4.55867512956778e+001	1.27607873897961e+002	4.55867512956778e+001	1.27607873897961e+002	4.55867512956778e+001	1.27607873897961e+002	4.55867512956778e+001	1.27607873897961e+002
2.75422870333816e+004	4.58698714594274e+001	1.28206030644855e+002	4.58698714594274e+001	1.28206030644855e+002	4.58698714594274e+001	1.28206030644855e+002	4.58698714594274e+001	1.28206030644855e+002
2.81838293126445e+004	4.61552328048421e+001	1.28805321724598e+002	4.61552328048421e+001	1.28805321724598e+002	4.61552328048421e+001	1.28805321724598e+002	4.61552328048421e+001	1.28805321724598e+002
2.88403150312660e+004	4.64428501847453e+001	1.29405387539147e+002	4.64428501847453e+001	1.29405387539147e+002	4.64428501847453e+001	1.29405387539147e+002	4.64428501847453e+001	1.29405387539147e+002
2.95120922666638e+004	4.67327361742711e+001	1.30005862602569e+002	4.67327361742711e+001	1.30005862602569e+002	4.67327361742711e+001	1.30005862602569e+002	4.67327361742711e+001	1.30005862602569e+002
3.01995172040201e+004	4.70249010173122e+001	1.30606376368098e+002	4.70249010173122e+001	1.30606376368098e+002	4.70249010173122e+001	1.30606376368098e+002	4.70249010173122e+001	1.30606376368098e+002
3.09029543251359e+004	4.73193525822142e+001	1.31206554082512e+002	4.73193525822142e+001	1.31206554082512e+002	4.73193525822142e+001	1.31206554082512e+002	4.73193525822142e+001	1.31206554082512e+002
3.16227766016837e+004	4.76160963270994e+001	1.31806017662515e+002	4.76160963270994e+001	1.31806017662515e+002	4.76160963270994e+001	1.31806017662515e+002	4.76160963270994e+001	1.31806017662515e+002
3.23593656929628e+004	4.79151352751184e+001	1.32404386587555e+002	4.79151352751184e+001	1.32404386587555e+002	4.79151352751184e+001	1.32404386587555e+002	4.79151352751184e+001	1.32404386587555e+002
3.31131121482591e+004	4.82164699998473e+001	1.33001278803281e+002	4.82164699998473e+001	1.33001278803281e+002	4.82164699998473e+001	1.33001278803281e+002	4.82164699998473e+001	1.33001278803281e+002
3.38844156139202e+004	4.85200986209562e+001	1.33596311629694e+002	4.85200986209562e+001	1.33596311629694e+002	4.85200986209562e+001	1.33596311629694e+002	4.85200986209562e+001	1.33596311629694e+002
3.46736850452531e+004	4.88260168101731e+001	1.34189102668069e+002	4.88260168101731e+001	1.34189102668069e+002	4.88260168101731e+001	1.34189102668069e+002	4.88260168101731e+001	1.34189102668069e+002
3.54813389233575e+004	4.91342178074931e+001	1.34779270700605e+002	4.91342178074931e+001	1.34779270700605e+002	4.91342178074931e+001	1.34779270700605e+002	4.91342178074931e+001	1.34779270700605e+002
3.63078054770101e+004	4.94446924474696e+001	1.35366436576978e+002	4.94446924474696e+001	1.35366436576978e+002	4.94446924474696e+001	1.35366436576978e+002	4.94446924474696e+001	1.35366436576978e+002
3.71535229097172e+004	4.97574291953494e+001	1.35950224082020e+002	4.97574291953494e+001	1.35950224082020e+002	4.97574291953494e+001	1.35950224082020e+002	4.97574291953494e+001	1.35950224082020e+002
3.80189396320560e+004	5.00724141927227e+001	1.36530260779016e+002	5.00724141927227e+001	1.36530260779016e+002	5.00724141927227e+001	1.36530260779016e+002	5.00724141927227e+001	1.36530260779016e+002
3.89045144994280e+004	5.03896313122768e+001	1.37106178823382e+002	5.03896313122768e+001	1.37106178823382e+002	5.03896313122768e+001	1.37106178823382e+002	5.03896313122768e+001	1.37106178823382e+002
3.98107170553496e+004	5.07090622211686e+001	1.37677615741811e+002	5.07090622211686e+001	1.37677615741811e+002	5.07090622211686e+001	1.37677615741811e+002	5.07090622211686e+001	1.37677615741811e+002
4.07380277804112e+004	5.10306864524631e+001	1.38244215172405e+002	5.10306864524631e+001	1.38244215172405e+002	5.10306864524631e+001	1.38244215172405e+002	5.10306864524631e+001	1.38244215172405e+002
4.16869383470335e+004	5.13544814840257e+001	1.38805627561677e+002	5.13544814840257e+001	1.38805627561677e+002	5.13544814840257e+001	1.38805627561677e+002	5.13544814840257e+001	1.38805627561677e+002
4.26579518801592e+004	5.16804228242041e+001	1.39361510814841e+002	5.16804228242041e+001	1.39361510814841e+002	5.16804228242041e+001	1.39361510814841e+002	5.16804228242041e+001	1.39361510814841e+002
4.36515832240165e+004	5.20084841035929e+001	1.39911530896283e+002	5.20084841035929e+001	1.39911530896283e+002	5.20084841035929e+001	1.39911530896283e+002	5.20084841035929e+001	1.39911530896283e+002
4.46683592150962e+004	5.23386371721427e+001	1.40455362377611e+002	5.23386371721427e+001	1.40455362377611e+002	5.23386371721427e+001	1.40455362377611e+002	5.23386371721427e+001	1.40455362377611e+002
4.57088189614874e+004	5.26708522008528e+001	1.40992688931234e+002	5.26708522008528e+001	1.40992688931234e+002	5.26708522008528e+001	1.40992688931234e+002	5.26708522008528e+001	1.40992688931234e+002
4.67735141287197e+004	5.30050977872711e+001	1.41523203767935e+002	5.30050977872711e+001	1.41523203767935e+002	5.30050977872711e+001	1.41523203767935e+002	5.30050977872711e+001	1.41523203767935e+002
4.78630092322637e+004	5.33413410640221e+001	1.42046610017454e+002	5.33413410640221e+001	1.42046610017454e+002	5.33413410640221e+001	1.42046610017454e+002	5.33413410640221e+001	1.42046610017454e+002
4.89778819368445e+004	5.36795478095891e+001	1.42562621051586e+002	5.36795478095891e+001	1.42562621051586e+002	5.36795478095891e+001	1.42562621051586e+002	5.36795478095891e+001	1.42562621051586e+002
5.01187233627271e+004	5.40196825605878e+001	1.43070960749823e+002	5.40196825605878e+001	1.43070960749823e+002	5.40196825605878e+001	1.43070960749823e+002	5.40196825605878e+001	1.43070960749823e+002
5.12861383991363e+004	5.43617087247909e+001	1.43571363708029e+002	5.43617087247909e+001	1.43571363708029e+002	5.43617087247909e+001	1.43571363708029e+002	5.43617087247909e+001	1.43571363708029e+002
5.24807460249771e+004	5.47055886941929e+001	1.44063575391056e+002	5.47055886941929e+001	1.44063575391056e+002	5.47055886941929e+001	1.44063575391056e+002	5.47055886941929e+001	1.44063575391056e+002
5.37031796370251e+004	5.50512839574327e+001	1.44547352230688e+002	5.50512839574327e+001	1.44547352230688e+002	5.50512839574327e+001	1.44547352230688e+002	5.50512839574327e+001	1.44547352230688e+002
5.49540873857623e+004	5.53987552109385e+001	1.45022461670568e+002	5.53987552109385e+001	1.45022461670568e+002	5.53987552109385e+001	1.45022461670568e+002	5.53987552109385e+001	1.45022461670568e+002
5.62341325190347e+004	5.57479624681964e+001	1.45488682160186e+002	5.57479624681964e+001	1.45488682160186e+002	5.57479624681964e+001	1.45488682160186e+002	5.57479624681964e+001	1.45488682160186e+002
5.75439937337155e+004	5.60988651665960e+001	1.45945803100242e+002	5.60988651665960e+001	1.45945803100242e+002	5.60988651665960e+001	1.45945803100242e+002	5.60988651665960e+001	1.45945803100242e+002
5.88843655355587e+004	5.64514222713549e+001	1.46393624741935e+002	5.64514222713549e+001	1.46393624741935e+002	5.64514222713549e+001	1.46393624741935e+002	5.64514222713549e+001	1.46393624741935e+002
6.02559586074356e+004	5.68055923760741e+001	1.46831958042962e+002	5.68055923760741e+001	1.46831958042962e+002	5.68055923760741e+001	1.46831958042962e+002	5.68055923760741e+001	1.46831958042962e+002
6.16595001861480e+004	5.71613337995323e+001	1.47260624483146e+002	5.71613337995323e+001	1.47260624483146e+002	5.71613337995323e+001	1.47260624483146e+002	5.71613337995323e+001	1.47260624483146e+002
6.30957344480191e+004	5.75186046783751e+001	1.47679455842730e+002	5.75186046783751e+001	1.47679455842730e+002	5.75186046783751e+001	1.47679455842730e+002	5.75186046783751e+001	1.47679455842730e+002
6.45654229034654e+004	5.78773630554120e+001	1.48088293946463e+002	5.78773630554120e+001	1.48088293946463e+002	5.78773630554120e+001	1.48088293946463e+002	5.78773630554120e+001	1.48088293946463e+002
6.60693448007594e+004	5.82375669632824e+001	1.48486990376603e+002	5.82375669632824e+001	1.48486990376603e+002	5.82375669632824e+001	1.48486990376603e+002	5.82375669632824e+001	1.48486990376603e+002
6.76082975391980e+004	5.85991745033010e+001	1.48875406158043e+002	5.85991745033010e+001	1.48875406158043e+002	5.85991745033010e+001	1.48875406158043e+002	5.85991745033010e+001	1.48875406158043e+002
6.91830970918934e+004	5.89621439193412e+001	1.49253411418653e+002	5.89621439193412e+001	1.49253411418653e+002	5.89621439193412e+001	1.49253411418653e+002	5.89621439193412e+001	1.49253411418653e+002
7.07945784384136e+004	5.93264336666590e+001	1.49620885027930e+002	5.93264336666590e+001	1.49620885027930e+002	5.93264336666590e+001	1.49620885027930e+002	5.93264336666590e+001	1.49620885027930e+002
7.24435960074988e+004	5.96920024756002e+001	1.49977714216962e+002	5.96920024756002e+001	1.49977714216962e+002	5.96920024756002e+001	1.49977714216962e+002	5.96920024756002e+001	1.49977714216962e+002
7.41310241300915e+004	6.00588094101742e+001	1.50323794182599e+002	6.00588094101742e+001	1.50323794182599e+002	6.00588094101742e+001	1.50323794182599e+002	6.00588094101742e+001	1.50323794182599e+002
7.58577575029181e+004	6.04268139215113e+001	1.50659027678592e+002	6.04268139215113e+001	1.50659027678592e+002	6.04268139215113e+001	1.50659027678592e+002	6.04268139215113e+001	1.50659027678592e+002
7.76247116628689e+004	6.07959758962513e+001	1.50983324596378e+002	6.07959758962513e+001	1.50983324596378e+002	6.07959758962513e+001	1.50983324596378e+002	6.07959758962513e+001	1.50983324596378e+002
7.94328234724279e+004	6.11662556999418e+001	1.51296601537973e+002	6.11662556999418e+001	1.51296601537973e+002	6.11662556999418e+001	1.51296601537973e+002	6.11662556999418e+001	1.51296601537973e+002
8.12830516164096e+004	6.15376142155454e+001	1.51598781383338e+002	6.15376142155454e+001	1.51598781383338e+002	6.15376142155454e+001	1.51598781383338e+002	6.15376142155454e+001	1.51598781383338e+002
8.31763771102668e+004	6.19100128771811e+001	1.51889792854391e+002	6.19100128771811e+001	1.51889792854391e+002	6.19100128771811e+001	1.51889792854391e+002	6.19100128771811e+001	1.51889792854391e+002
8.51138038202373e+004	6.22834136992386e+001	1.52169570077672e+002	6.22834136992386e+001	1.52169570077672e+002	6.22834136992386e+001	1.52169570077672e+002	6.22834136992386e+001	1.52169570077672e+002
8.70963589956077e+004	6.26577793010208e+001	1.52438052147538e+002	6.26577793010208e+001	1.52438052147538e+002	6.26577793010208e+001	1.52438052147538e+002	6.26577793010208e+001	1.52438052147538e+002
8.91250938133742e+004	6.30330729270847e+001	1.52695182691523e+002	6.30330729270847e+001	1.52695182691523e+002	6.30330729270847e+001	1.52695182691523e+002	6.30330729270847e+001	1.52695182691523e+002
9.12010839355906e+004	6.34092584634529e+001	1.52940909439437e+002	6.34092584634529e+001	1.52940909439437e+002	6.34092584634529e+001	1.52940909439437e+002	6.34092584634529e+001	1.52940909439437e+002
9.33254300796988e+004	6.37863004498818e+001	1.53175183797530e+002	6.37863004498818e+001	1.53175183797530e+002	6.37863004498818e+001	1.53175183797530e+002	6.37863004498818e+001	1.53175183797530e+002
9.54992586021432e+004	6.41641640883724e+001	1.53397960428925e+002	6.41641640883724e+001	1.53397960428925e+002	6.41641640883724e+001	1.53397960428925e+002	6.41641640883724e+001	1.53397960428925e+002
